* c:\users\chaithu\esim-workspace\instrumentationamplifier\instrumentationamplifier.cir
Transient Analysis  Fri Apr 04 19:03:40  2025
--------------------------------------------------------------------------------
Index   time            ?               in              net-_r1-pad1_   
--------------------------------------------------------------------------------
0	0.000000e+00	-1.49916e+01	0.000000e+00	1.012555e-03	
1	1.000000e-04	-1.49916e+01	7.539773e-04	1.760008e-03	
2	2.000000e-04	-1.49916e+01	1.507925e-03	2.513740e-03	
3	4.000000e-04	-1.49916e+01	3.015611e-03	4.021177e-03	
4	8.000000e-04	-1.49916e+01	6.029318e-03	7.034433e-03	
5	1.600000e-03	-1.49916e+01	1.204341e-02	1.304779e-02	
6	3.200000e-03	-1.49916e+01	2.396520e-02	2.496832e-02	
7	6.400000e-03	-1.49916e+01	4.696484e-02	4.796543e-02	
8	1.280000e-02	-1.49916e+01	8.643708e-02	8.743373e-02	
9	2.280000e-02	-1.49916e+01	1.188554e-01	1.198505e-01	
10	3.280000e-02	-1.49916e+01	1.058749e-01	1.068746e-01	
11	4.280000e-02	-1.49916e+01	5.245389e-02	5.346271e-02	
12	5.280000e-02	-1.49916e+01	-2.10028e-02	-1.99795e-02	
13	6.280000e-02	-1.49916e+01	-8.64371e-02	-8.54070e-02	
14	7.280000e-02	-1.49916e+01	-1.18855e-01	-1.17820e-01	
15	8.280000e-02	-1.49916e+01	-1.05875e-01	-1.04847e-01	
16	9.280000e-02	-1.49916e+01	-5.24539e-02	-5.14349e-02	
17	1.028000e-01	-1.49916e+01	2.100277e-02	2.200371e-02	
18	1.128000e-01	-1.49916e+01	8.643708e-02	8.743636e-02	
19	1.228000e-01	-1.49916e+01	1.188554e-01	1.198478e-01	
20	1.328000e-01	-1.49916e+01	1.058749e-01	1.068772e-01	
21	1.428000e-01	-1.49916e+01	5.245389e-02	5.346008e-02	
22	1.528000e-01	-1.49916e+01	-2.10028e-02	-1.99768e-02	
23	1.628000e-01	-1.49916e+01	-8.64371e-02	-8.54096e-02	
24	1.728000e-01	-1.49916e+01	-1.18855e-01	-1.17817e-01	
25	1.828000e-01	-1.49916e+01	-1.05875e-01	-1.04850e-01	
26	1.928000e-01	-1.49916e+01	-5.24539e-02	-5.14322e-02	
27	2.028000e-01	-1.49916e+01	2.100277e-02	2.200108e-02	
28	2.128000e-01	-1.49916e+01	8.643708e-02	8.743898e-02	
29	2.228000e-01	-1.49916e+01	1.188554e-01	1.198452e-01	
30	2.328000e-01	-1.49916e+01	1.058749e-01	1.068799e-01	
31	2.428000e-01	-1.49916e+01	5.245389e-02	5.345746e-02	
32	2.528000e-01	-1.49916e+01	-2.10028e-02	-1.99742e-02	
33	2.628000e-01	-1.49916e+01	-8.64371e-02	-8.54122e-02	
34	2.728000e-01	-1.49916e+01	-1.18855e-01	-1.17815e-01	
35	2.828000e-01	-1.49916e+01	-1.05875e-01	-1.04852e-01	
36	2.928000e-01	-1.49916e+01	-5.24539e-02	-5.14296e-02	
37	3.028000e-01	-1.49916e+01	2.100277e-02	2.199846e-02	
38	3.128000e-01	-1.49916e+01	8.643708e-02	8.744159e-02	
39	3.228000e-01	-1.49916e+01	1.188554e-01	1.198426e-01	
40	3.328000e-01	-1.49916e+01	1.058749e-01	1.068825e-01	
41	3.428000e-01	-1.49916e+01	5.245389e-02	5.345484e-02	
42	3.528000e-01	-1.49916e+01	-2.10028e-02	-1.99716e-02	
43	3.628000e-01	-1.49916e+01	-8.64371e-02	-8.54149e-02	
44	3.728000e-01	-1.49916e+01	-1.18855e-01	-1.17812e-01	
45	3.828000e-01	-1.49916e+01	-1.05875e-01	-1.04855e-01	
46	3.928000e-01	-1.49916e+01	-5.24539e-02	-5.14270e-02	
47	4.028000e-01	-1.49916e+01	2.100277e-02	2.199586e-02	
48	4.128000e-01	-1.49916e+01	8.643708e-02	8.744420e-02	
49	4.228000e-01	-1.49916e+01	1.188554e-01	1.198400e-01	
50	4.328000e-01	-1.49916e+01	1.058749e-01	1.068851e-01	
51	4.428000e-01	-1.49916e+01	5.245389e-02	5.345224e-02	
52	4.528000e-01	-1.49916e+01	-2.10028e-02	-1.99690e-02	
53	4.628000e-01	-1.49916e+01	-8.64371e-02	-8.54175e-02	
54	4.728000e-01	-1.49916e+01	-1.18855e-01	-1.17809e-01	

Index   time            ?               in              net-_r1-pad1_   
--------------------------------------------------------------------------------
55	4.828000e-01	-1.49916e+01	-1.05875e-01	-1.04858e-01	
56	4.928000e-01	-1.49916e+01	-5.24539e-02	-5.14244e-02	
57	5.028000e-01	-1.49916e+01	2.100277e-02	2.199326e-02	
58	5.128000e-01	-1.49916e+01	8.643708e-02	8.744679e-02	
59	5.228000e-01	-1.49916e+01	1.188554e-01	1.198374e-01	
60	5.328000e-01	-1.49916e+01	1.058749e-01	1.068877e-01	
61	5.428000e-01	-1.49916e+01	5.245389e-02	5.344965e-02	
62	5.528000e-01	-1.49916e+01	-2.10028e-02	-1.99664e-02	
63	5.628000e-01	-1.49916e+01	-8.64371e-02	-8.54201e-02	
64	5.728000e-01	-1.49916e+01	-1.18855e-01	-1.17807e-01	
65	5.828000e-01	-1.49916e+01	-1.05875e-01	-1.04860e-01	
66	5.928000e-01	-1.49916e+01	-5.24539e-02	-5.14218e-02	
67	6.028000e-01	-1.49916e+01	2.100277e-02	2.199067e-02	
68	6.128000e-01	-1.49916e+01	8.643708e-02	8.744937e-02	
69	6.228000e-01	-1.49916e+01	1.188554e-01	1.198348e-01	
70	6.328000e-01	-1.49916e+01	1.058749e-01	1.068903e-01	
71	6.428000e-01	-1.49916e+01	5.245389e-02	5.344707e-02	
72	6.528000e-01	-1.49916e+01	-2.10028e-02	-1.99638e-02	
73	6.628000e-01	-1.49916e+01	-8.64371e-02	-8.54226e-02	
74	6.728000e-01	-1.49916e+01	-1.18855e-01	-1.17804e-01	
75	6.828000e-01	-1.49916e+01	-1.05875e-01	-1.04863e-01	
76	6.928000e-01	-1.49916e+01	-5.24539e-02	-5.14192e-02	
77	7.028000e-01	-1.49916e+01	2.100277e-02	2.198809e-02	
78	7.128000e-01	-1.49916e+01	8.643708e-02	8.745195e-02	
79	7.228000e-01	-1.49916e+01	1.188554e-01	1.198323e-01	
80	7.328000e-01	-1.49916e+01	1.058749e-01	1.068928e-01	
81	7.428000e-01	-1.49916e+01	5.245389e-02	5.344449e-02	
82	7.528000e-01	-1.49916e+01	-2.10028e-02	-1.99612e-02	
83	7.628000e-01	-1.49916e+01	-8.64371e-02	-8.54252e-02	
84	7.728000e-01	-1.49916e+01	-1.18855e-01	-1.17802e-01	
85	7.828000e-01	-1.49916e+01	-1.05875e-01	-1.04865e-01	
86	7.928000e-01	-1.49916e+01	-5.24539e-02	-5.14167e-02	
87	8.028000e-01	-1.49916e+01	2.100277e-02	2.198552e-02	
88	8.128000e-01	-1.49916e+01	8.643708e-02	8.745452e-02	
89	8.228000e-01	-1.49916e+01	1.188554e-01	1.198297e-01	
90	8.328000e-01	-1.49916e+01	1.058749e-01	1.068954e-01	
91	8.428000e-01	-1.49916e+01	5.245389e-02	5.344193e-02	
92	8.528000e-01	-1.49916e+01	-2.10028e-02	-1.99587e-02	
93	8.628000e-01	-1.49916e+01	-8.64371e-02	-8.54278e-02	
94	8.728000e-01	-1.49916e+01	-1.18855e-01	-1.17799e-01	
95	8.828000e-01	-1.49916e+01	-1.05875e-01	-1.04868e-01	
96	8.928000e-01	-1.49916e+01	-5.24539e-02	-5.14141e-02	
97	9.028000e-01	-1.49916e+01	2.100277e-02	2.198296e-02	
98	9.128000e-01	-1.49916e+01	8.643708e-02	8.745707e-02	
99	9.228000e-01	-1.49916e+01	1.188554e-01	1.198271e-01	
100	9.328000e-01	-1.49916e+01	1.058749e-01	1.068979e-01	
101	9.428000e-01	-1.49916e+01	5.245389e-02	5.343937e-02	
102	9.528000e-01	-1.49916e+01	-2.10028e-02	-1.99561e-02	
103	9.628000e-01	-1.49916e+01	-8.64371e-02	-8.54303e-02	
104	9.728000e-01	-1.49916e+01	-1.18855e-01	-1.17796e-01	
105	9.828000e-01	-1.49916e+01	-1.05875e-01	-1.04871e-01	
106	9.928000e-01	-1.49916e+01	-5.24539e-02	-5.14115e-02	
107	1.000000e+00	-1.49916e+01	-2.93906e-16	9.816449e-04	

* c:\users\chaithu\esim-workspace\instrumentationamplifier\instrumentationamplifier.cir
Transient Analysis  Fri Apr 04 19:03:40  2025
--------------------------------------------------------------------------------
Index   time            net-_r1-pad2_   net-_r2-pad2_   net-_r3-pad2_   
--------------------------------------------------------------------------------
0	0.000000e+00	1.012546e-03	1.262986e-03	1.262944e-03	
1	1.000000e-04	1.016858e-03	3.496716e-03	-2.19019e-04	
2	2.000000e-04	1.017016e-03	5.757599e-03	-1.72601e-03	
3	4.000000e-04	1.017189e-03	1.027957e-02	-4.74036e-03	
4	8.000000e-04	1.017522e-03	1.931869e-02	-1.07659e-02	
5	1.600000e-03	1.018139e-03	3.735754e-02	-2.27907e-02	
6	3.200000e-03	1.019238e-03	7.311702e-02	-4.66285e-02	
7	6.400000e-03	1.021277e-03	1.421044e-01	-9.26166e-02	
8	1.280000e-02	1.024596e-03	2.605028e-01	-1.71543e-01	
9	2.280000e-02	1.026158e-03	3.577501e-01	-2.36372e-01	
10	3.280000e-02	1.022774e-03	3.188293e-01	-2.10430e-01	
11	4.280000e-02	1.015479e-03	1.586079e-01	-1.03629e-01	
12	5.280000e-02	1.005663e-03	-6.16994e-02	4.322634e-02	
13	6.280000e-02	1.003014e-03	-2.57977e-01	1.740734e-01	
14	7.280000e-02	1.000664e-03	-3.55211e-01	2.388921e-01	
15	8.280000e-02	1.005274e-03	-3.16302e-01	2.129606e-01	
16	9.280000e-02	1.009633e-03	-1.56074e-01	1.061490e-01	
17	1.028000e-01	1.020428e-03	6.422077e-02	-4.06957e-02	
18	1.128000e-01	1.023054e-03	2.605138e-01	-1.71553e-01	
19	1.228000e-01	1.027701e-03	3.577391e-01	-2.36362e-01	
20	1.328000e-01	1.021232e-03	3.188402e-01	-2.10440e-01	
21	1.428000e-01	1.017020e-03	1.585969e-01	-1.03619e-01	
22	1.528000e-01	1.004123e-03	-6.16884e-02	4.321645e-02	
23	1.628000e-01	1.004553e-03	-2.57988e-01	1.740833e-01	
24	1.728000e-01	9.991255e-04	-3.55200e-01	2.388822e-01	
25	1.828000e-01	1.006812e-03	-3.16313e-01	2.129705e-01	
26	1.928000e-01	1.008096e-03	-1.56063e-01	1.061392e-01	
27	2.028000e-01	1.021963e-03	6.420981e-02	-4.06858e-02	
28	2.128000e-01	1.021518e-03	2.605248e-01	-1.71563e-01	
29	2.228000e-01	1.029235e-03	3.577282e-01	-2.36352e-01	
30	2.328000e-01	1.019698e-03	3.188512e-01	-2.10450e-01	
31	2.428000e-01	1.018552e-03	1.585859e-01	-1.03609e-01	
32	2.528000e-01	1.002591e-03	-6.16775e-02	4.320661e-02	
33	2.628000e-01	1.006084e-03	-2.57999e-01	1.740931e-01	
34	2.728000e-01	9.975954e-04	-3.55189e-01	2.388724e-01	
35	2.828000e-01	1.008341e-03	-3.16324e-01	2.129803e-01	
36	2.928000e-01	1.006567e-03	-1.56052e-01	1.061293e-01	
37	3.028000e-01	1.023491e-03	6.419890e-02	-4.06760e-02	
38	3.128000e-01	1.019992e-03	2.605357e-01	-1.71573e-01	
39	3.228000e-01	1.030761e-03	3.577173e-01	-2.36342e-01	
40	3.328000e-01	1.018173e-03	3.188621e-01	-2.10460e-01	
41	3.428000e-01	1.020076e-03	1.585751e-01	-1.03599e-01	
42	3.528000e-01	1.001068e-03	-6.16666e-02	4.319681e-02	
43	3.628000e-01	1.007607e-03	-2.58010e-01	1.741029e-01	
44	3.728000e-01	9.960740e-04	-3.55178e-01	2.388626e-01	
45	3.828000e-01	1.009862e-03	-3.16335e-01	2.129901e-01	
46	3.928000e-01	1.005047e-03	-1.56041e-01	1.061196e-01	
47	4.028000e-01	1.025009e-03	6.418804e-02	-4.06662e-02	
48	4.128000e-01	1.018474e-03	2.605465e-01	-1.71583e-01	
49	4.228000e-01	1.032278e-03	3.577064e-01	-2.36333e-01	
50	4.328000e-01	1.016657e-03	3.188729e-01	-2.10470e-01	
51	4.428000e-01	1.021592e-03	1.585642e-01	-1.03589e-01	
52	4.528000e-01	9.995534e-04	-6.16558e-02	4.318705e-02	
53	4.628000e-01	1.009120e-03	-2.58021e-01	1.741127e-01	
54	4.728000e-01	9.945611e-04	-3.55167e-01	2.388528e-01	

Index   time            net-_r1-pad2_   net-_r2-pad2_   net-_r3-pad2_   
--------------------------------------------------------------------------------
55	4.828000e-01	1.011374e-03	-3.16346e-01	2.129998e-01	
56	4.928000e-01	1.003536e-03	-1.56030e-01	1.061098e-01	
57	5.028000e-01	1.026520e-03	6.417722e-02	-4.06565e-02	
58	5.128000e-01	1.016965e-03	2.605573e-01	-1.71592e-01	
59	5.228000e-01	1.033786e-03	3.576956e-01	-2.36323e-01	
60	5.328000e-01	1.015149e-03	3.188837e-01	-2.10479e-01	
61	5.428000e-01	1.023098e-03	1.585534e-01	-1.03580e-01	
62	5.528000e-01	9.980474e-04	-6.16450e-02	4.317734e-02	
63	5.628000e-01	1.010625e-03	-2.58031e-01	1.741224e-01	
64	5.728000e-01	9.930568e-04	-3.55157e-01	2.388431e-01	
65	5.828000e-01	1.012877e-03	-3.16357e-01	2.130095e-01	
66	5.928000e-01	1.002033e-03	-1.56019e-01	1.061001e-01	
67	6.028000e-01	1.028021e-03	6.416645e-02	-4.06468e-02	
68	6.128000e-01	1.015464e-03	2.605681e-01	-1.71602e-01	
69	6.228000e-01	1.035286e-03	3.576849e-01	-2.36313e-01	
70	6.328000e-01	1.013650e-03	3.188945e-01	-2.10489e-01	
71	6.428000e-01	1.024597e-03	1.585427e-01	-1.03570e-01	
72	6.528000e-01	9.965500e-04	-6.16342e-02	4.316768e-02	
73	6.628000e-01	1.012122e-03	-2.58042e-01	1.741321e-01	
74	6.728000e-01	9.915608e-04	-3.55146e-01	2.388335e-01	
75	6.828000e-01	1.014372e-03	-3.16367e-01	2.130192e-01	
76	6.928000e-01	1.000539e-03	-1.56009e-01	1.060905e-01	
77	7.028000e-01	1.029515e-03	6.415572e-02	-4.06372e-02	
78	7.128000e-01	1.013972e-03	2.605788e-01	-1.71612e-01	
79	7.228000e-01	1.036778e-03	3.576742e-01	-2.36304e-01	
80	7.328000e-01	1.012159e-03	3.189052e-01	-2.10499e-01	
81	7.428000e-01	1.026087e-03	1.585320e-01	-1.03560e-01	
82	7.528000e-01	9.950610e-04	-6.16235e-02	4.315806e-02	
83	7.628000e-01	1.013610e-03	-2.58053e-01	1.741417e-01	
84	7.728000e-01	9.900734e-04	-3.55135e-01	2.388238e-01	
85	7.828000e-01	1.015859e-03	-3.16378e-01	2.130288e-01	
86	7.928000e-01	9.990534e-04	-1.55998e-01	1.060809e-01	
87	8.028000e-01	1.030999e-03	6.414504e-02	-4.06276e-02	
88	8.128000e-01	1.012488e-03	2.605895e-01	-1.71621e-01	
89	8.228000e-01	1.038261e-03	3.576635e-01	-2.36294e-01	
90	8.328000e-01	1.010677e-03	3.189158e-01	-2.10508e-01	
91	8.428000e-01	1.027568e-03	1.585213e-01	-1.03551e-01	
92	8.528000e-01	9.935803e-04	-6.16128e-02	4.314848e-02	
93	8.628000e-01	1.015090e-03	-2.58064e-01	1.741513e-01	
94	8.728000e-01	9.885944e-04	-3.55124e-01	2.388143e-01	
95	8.828000e-01	1.017337e-03	-3.16389e-01	2.130384e-01	
96	8.928000e-01	9.975760e-04	-1.55987e-01	1.060713e-01	
97	9.028000e-01	1.032476e-03	6.413440e-02	-4.06180e-02	
98	9.128000e-01	1.011012e-03	2.606001e-01	-1.71631e-01	
99	9.228000e-01	1.039736e-03	3.576529e-01	-2.36285e-01	
100	9.328000e-01	1.009203e-03	3.189264e-01	-2.10518e-01	
101	9.428000e-01	1.029041e-03	1.585107e-01	-1.03541e-01	
102	9.528000e-01	9.921082e-04	-6.16022e-02	4.313895e-02	
103	9.628000e-01	1.016561e-03	-2.58074e-01	1.741608e-01	
104	9.728000e-01	9.871237e-04	-3.55114e-01	2.388047e-01	
105	9.828000e-01	1.018807e-03	-3.16399e-01	2.130479e-01	
106	9.928000e-01	9.961069e-04	-1.55977e-01	1.060618e-01	
107	1.000000e+00	1.031194e-03	1.132898e-03	1.380746e-03	

* c:\users\chaithu\esim-workspace\instrumentationamplifier\instrumentationamplifier.cir
Transient Analysis  Fri Apr 04 19:03:40  2025
--------------------------------------------------------------------------------
Index   time            net-_r4-pad2_   net-_r5-pad2_   net-_x1-pad4_   
--------------------------------------------------------------------------------
0	0.000000e+00	3.273901e-04	1.339894e-03	-1.50000e+01	
1	1.000000e-04	-5.98771e-04	4.262679e-04	-1.50000e+01	
2	2.000000e-04	-1.54063e-03	-5.15120e-04	-1.50000e+01	
3	4.000000e-04	-3.42458e-03	-2.39860e-03	-1.50000e+01	
4	8.000000e-04	-7.19048e-03	-6.16360e-03	-1.50000e+01	
5	1.600000e-03	-1.47059e-02	-1.36772e-02	-1.50000e+01	
6	3.200000e-03	-2.96044e-02	-2.85722e-02	-1.50000e+01	
7	6.400000e-03	-5.83466e-02	-5.73082e-02	-1.50000e+01	
8	1.280000e-02	-1.07675e-01	-1.06627e-01	-1.50000e+01	
9	2.280000e-02	-1.48193e-01	-1.47142e-01	-1.50000e+01	
10	3.280000e-02	-1.31980e-01	-1.30940e-01	-1.50000e+01	
11	4.280000e-02	-6.52291e-02	-6.42115e-02	-1.50000e+01	
12	5.280000e-02	2.655416e-02	2.754726e-02	-1.50000e+01	
13	6.280000e-02	1.083327e-01	1.093117e-01	-1.50000e+01	
14	7.280000e-02	1.488440e-01	1.498199e-01	-1.50000e+01	
15	8.280000e-02	1.326370e-01	1.336248e-01	-1.50000e+01	
16	9.280000e-02	6.588053e-02	6.688818e-02	-1.50000e+01	
17	1.028000e-01	-2.58964e-02	-2.48640e-02	-1.50000e+01	
18	1.128000e-01	-1.07681e-01	-1.06634e-01	-1.50000e+01	
19	1.228000e-01	-1.48187e-01	-1.47135e-01	-1.50000e+01	
20	1.328000e-01	-1.31986e-01	-1.30947e-01	-1.50000e+01	
21	1.428000e-01	-6.52229e-02	-6.42047e-02	-1.50000e+01	
22	1.528000e-01	2.654798e-02	2.754041e-02	-1.50000e+01	
23	1.628000e-01	1.083389e-01	1.093185e-01	-1.50000e+01	
24	1.728000e-01	1.488378e-01	1.498130e-01	-1.50000e+01	
25	1.828000e-01	1.326432e-01	1.336317e-01	-1.50000e+01	
26	1.928000e-01	6.587435e-02	6.688134e-02	-1.50000e+01	
27	2.028000e-01	-2.58902e-02	-2.48572e-02	-1.50000e+01	
28	2.128000e-01	-1.07688e-01	-1.06641e-01	-1.50000e+01	
29	2.228000e-01	-1.48180e-01	-1.47128e-01	-1.50000e+01	
30	2.328000e-01	-1.31992e-01	-1.30954e-01	-1.50000e+01	
31	2.428000e-01	-6.52168e-02	-6.41979e-02	-1.50000e+01	
32	2.528000e-01	2.654183e-02	2.753360e-02	-1.50000e+01	
33	2.628000e-01	1.083450e-01	1.093253e-01	-1.50000e+01	
34	2.728000e-01	1.488316e-01	1.498062e-01	-1.50000e+01	
35	2.828000e-01	1.326493e-01	1.336385e-01	-1.50000e+01	
36	2.928000e-01	6.586821e-02	6.687456e-02	-1.50000e+01	
37	3.028000e-01	-2.58841e-02	-2.48504e-02	-1.50000e+01	
38	3.128000e-01	-1.07694e-01	-1.06648e-01	-1.50000e+01	
39	3.228000e-01	-1.48174e-01	-1.47121e-01	-1.50000e+01	
40	3.328000e-01	-1.31998e-01	-1.30961e-01	-1.50000e+01	
41	3.428000e-01	-6.52107e-02	-6.41911e-02	-1.50000e+01	
42	3.528000e-01	2.653570e-02	2.752686e-02	-1.50000e+01	
43	3.628000e-01	1.083512e-01	1.093321e-01	-1.50000e+01	
44	3.728000e-01	1.488255e-01	1.497995e-01	-1.50000e+01	
45	3.828000e-01	1.326554e-01	1.336452e-01	-1.50000e+01	
46	3.928000e-01	6.586209e-02	6.686783e-02	-1.50000e+01	
47	4.028000e-01	-2.58780e-02	-2.48437e-02	-1.50000e+01	
48	4.128000e-01	-1.07700e-01	-1.06655e-01	-1.50000e+01	
49	4.228000e-01	-1.48168e-01	-1.47114e-01	-1.50000e+01	
50	4.328000e-01	-1.32004e-01	-1.30967e-01	-1.50000e+01	
51	4.428000e-01	-6.52046e-02	-6.41844e-02	-1.50000e+01	
52	4.528000e-01	2.652960e-02	2.752017e-02	-1.50000e+01	
53	4.628000e-01	1.083573e-01	1.093387e-01	-1.50000e+01	
54	4.728000e-01	1.488194e-01	1.497928e-01	-1.50000e+01	

Index   time            net-_r4-pad2_   net-_r5-pad2_   net-_x1-pad4_   
--------------------------------------------------------------------------------
55	4.828000e-01	1.326615e-01	1.336519e-01	-1.50000e+01	
56	4.928000e-01	6.585600e-02	6.686116e-02	-1.50000e+01	
57	5.028000e-01	-2.58719e-02	-2.48370e-02	-1.50000e+01	
58	5.128000e-01	-1.07706e-01	-1.06661e-01	-1.50000e+01	
59	5.228000e-01	-1.48162e-01	-1.47108e-01	-1.50000e+01	
60	5.328000e-01	-1.32010e-01	-1.30974e-01	-1.50000e+01	
61	5.428000e-01	-6.51985e-02	-6.41778e-02	-1.50000e+01	
62	5.528000e-01	2.652353e-02	2.751354e-02	-1.50000e+01	
63	5.628000e-01	1.083633e-01	1.093454e-01	-1.50000e+01	
64	5.728000e-01	1.488133e-01	1.497862e-01	-1.50000e+01	
65	5.828000e-01	1.326676e-01	1.336585e-01	-1.50000e+01	
66	5.928000e-01	6.584994e-02	6.685455e-02	-1.50000e+01	
67	6.028000e-01	-2.58659e-02	-2.48304e-02	-1.50000e+01	
68	6.128000e-01	-1.07712e-01	-1.06668e-01	-1.50000e+01	
69	6.228000e-01	-1.48156e-01	-1.47101e-01	-1.50000e+01	
70	6.328000e-01	-1.32016e-01	-1.30980e-01	-1.50000e+01	
71	6.428000e-01	-6.51925e-02	-6.41712e-02	-1.50000e+01	
72	6.528000e-01	2.651749e-02	2.750696e-02	-1.50000e+01	
73	6.628000e-01	1.083694e-01	1.093520e-01	-1.50000e+01	
74	6.728000e-01	1.488073e-01	1.497796e-01	-1.50000e+01	
75	6.828000e-01	1.326736e-01	1.336651e-01	-1.50000e+01	
76	6.928000e-01	6.584391e-02	6.684799e-02	-1.50000e+01	
77	7.028000e-01	-2.58598e-02	-2.48239e-02	-1.50000e+01	
78	7.128000e-01	-1.07718e-01	-1.06674e-01	-1.50000e+01	
79	7.228000e-01	-1.48150e-01	-1.47095e-01	-1.50000e+01	
80	7.328000e-01	-1.32022e-01	-1.30987e-01	-1.50000e+01	
81	7.428000e-01	-6.51864e-02	-6.41647e-02	-1.50000e+01	
82	7.528000e-01	2.651147e-02	2.750043e-02	-1.50000e+01	
83	7.628000e-01	1.083754e-01	1.093585e-01	-1.50000e+01	
84	7.728000e-01	1.488013e-01	1.497731e-01	-1.50000e+01	
85	7.828000e-01	1.326796e-01	1.336716e-01	-1.50000e+01	
86	7.928000e-01	6.583790e-02	6.684149e-02	-1.50000e+01	
87	8.028000e-01	-2.58538e-02	-2.48174e-02	-1.50000e+01	
88	8.128000e-01	-1.07724e-01	-1.06681e-01	-1.50000e+01	
89	8.228000e-01	-1.48144e-01	-1.47088e-01	-1.50000e+01	
90	8.328000e-01	-1.32028e-01	-1.30993e-01	-1.50000e+01	
91	8.428000e-01	-6.51805e-02	-6.41582e-02	-1.50000e+01	
92	8.528000e-01	2.650549e-02	2.749396e-02	-1.50000e+01	
93	8.628000e-01	1.083814e-01	1.093649e-01	-1.50000e+01	
94	8.728000e-01	1.487953e-01	1.497666e-01	-1.50000e+01	
95	8.828000e-01	1.326856e-01	1.336780e-01	-1.50000e+01	
96	8.928000e-01	6.583193e-02	6.683504e-02	-1.50000e+01	
97	9.028000e-01	-2.58479e-02	-2.48110e-02	-1.50000e+01	
98	9.128000e-01	-1.07730e-01	-1.06687e-01	-1.50000e+01	
99	9.228000e-01	-1.48138e-01	-1.47082e-01	-1.50000e+01	
100	9.328000e-01	-1.32034e-01	-1.31000e-01	-1.50000e+01	
101	9.428000e-01	-6.51745e-02	-6.41518e-02	-1.50000e+01	
102	9.528000e-01	2.649953e-02	2.748755e-02	-1.50000e+01	
103	9.628000e-01	1.083873e-01	1.093714e-01	-1.50000e+01	
104	9.728000e-01	1.487893e-01	1.497602e-01	-1.50000e+01	
105	9.828000e-01	1.326916e-01	1.336844e-01	-1.50000e+01	
